 ****** HSPICE -- R-2020.12 linux64 (Nov 23 2020 6727817) ******                
  Copyright (c) 1986 - 2024 by Synopsys, Inc. All Rights Reserved.              
  This software and the associated documentation are proprietary
  to Synopsys, Inc. This software may only be used in accordance
  with the terms and conditions of a written license agreement with
  Synopsys, Inc. All other use, reproduction, or distribution of
  this software is strictly prohibited.
  Input File: post_XOR.sp                                                       
  Command line options: /home/tools/synopsys/hspice/2020.12/hspice/linux64/hspice -i post_XOR.sp -o post_XOR.lis
  Start time: Sat Nov 23 20:21:16 2024
 lic:  
 lic: FLEXlm: SDK_12.9 
 lic: USER:   ts110060012          HOSTNAME: linuxcad30.ee.ncu.edu.tw 
 lic: HOSTID: "524f268a8c96"       PID:      10138 
 lic: Using FLEXlm license file: 
 lic: 26585@lshc 
 lic: Checkout 1 hspice 
 lic: License/Maintenance for hspice will expire on 14-may-2025/2024.09 
 lic: 318(in_use)/1100(total) FLOATING license(s) on SERVER 26585@lshc 
 lic:   
  **warning** (hw2_XOR.pex.cir:7) Global net name "gnd" in subckt pin list. The pin will be connected to the local net. Recommend to not use global net names in subckt pin lists.
1****** HSPICE -- R-2020.12 linux64 (Nov 23 2020 6727817) ******                
 ******  
 **110060012_hw2_xor**

 ****** circuit name directory
 circuit number to circuit name directory
   number circuitname                     definition         multiplier
        0 main circuit
        1 xhw2_xor.                       hw2_xor            1.00 
        2 xhw2_xor.x_pm_hw2_xor%a.        pm_hw2_xor%a       1.00 
        3 xhw2_xor.x_pm_hw2_xor%b.        pm_hw2_xor%b       1.00 
        4 xhw2_xor.x_pm_hw2_xor%3.        pm_hw2_xor%3       1.00 
        5 xhw2_xor.x_pm_hw2_xor%4.        pm_hw2_xor%4       1.00 
        6 xhw2_xor.x_pm_hw2_xor%5.        pm_hw2_xor%5       1.00 
        7 xhw2_xor.x_pm_hw2_xor%6.        pm_hw2_xor%6       1.00 
        8 xhw2_xor.x_pm_hw2_xor%7.        pm_hw2_xor%7       1.00 
        9 xhw2_xor.x_pm_hw2_xor%8.        pm_hw2_xor%8       1.00 
       10 xhw2_xor.x_pm_hw2_xor%9.        pm_hw2_xor%9       1.00 
       11 xhw2_xor.x_pm_hw2_xor%10.       pm_hw2_xor%10      1.00 
       12 xhw2_xor.x_pm_hw2_xor%c.        pm_hw2_xor%c       1.00 
       13 xhw2_xor.x_pm_hw2_xor%s.        pm_hw2_xor%s       1.00 
       14 xhw2_xor.x_pm_hw2_xor%13.       pm_hw2_xor%13      1.00 
       15 xhw2_xor.x_pm_hw2_xor%14.       pm_hw2_xor%14      1.00 
       16 xhw2_xor.x_pm_hw2_xor%15.       pm_hw2_xor%15      1.00 
       17 xhw2_xor.x_pm_hw2_xor%gnd.      pm_hw2_xor%gnd     1.00 
       18 xhw2_xor.x_pm_hw2_xor%vdd.      pm_hw2_xor%vdd     1.00 
  **info** (post_XOR.sp:21) DC voltage reset to initial transient source value in source 0:v1. new dc=0.0000D+00
 

 Warning(s) associated with encrypted block(s) were suppressed due to encrypted content.
             
 Summary of Linear Res Distribution Info
 ---------------------------------------
 |Range          |Total     |Percent(%)|
 |---------------+----------+----------|
 |1e-03  ~  1e-02|5         |2.0408    |
 |1e-02  ~  1e-01|17        |6.9388    |
 |1e-01  ~  1e+00|52        |21.2245   |
 |1e+00  ~  1e+03|171       |69.7959   |
 ---------------------------------------
              
             
 Summary of Linear Cap Distribution Info
 ---------------------------------------
 |Range          |Total     |Percent(%)|
 |---------------+----------+----------|
 |1e-18  ~  1e-17|4         |3.8095    |
 |1e-17  ~  1e-16|28        |26.6667   |
 |1e-16  ~  1e-15|66        |62.8571   |
 |1e-15  ~  1e-14|7         |6.6667    |
 ---------------------------------------
              
             
 Summary of Detailed RC Type Statistics
 -------------------------
 |Element Type|Number    |
 |------------+----------|
 |Constant Res|245       |
 |            |          |
 |Constant Cap|105       |
 -------------------------
              
  
      
 *****************************************************************
 ******  option summary
 ******
 runlvl  = 3         bypass  = 2.0000    
  Opening plot unit= 15
 file=post_XOR.pa0

 **info** dc convergence successful at Newton-Raphson method 
 ******  
 **110060012_hw2_xor**

 ****** operating point information tnom=  25.000 temp=  30.000 ******
 ****** operating point status is all       simulation time is     0.     
     node    =voltage       node    =voltage       node    =voltage

 + 0:a       =   0.       0:b       =   0.       0:c       =   0.     
 + 0:s       = 148.0940n  0:vdd     =   1.8000   1:n_10_m14= 431.1947m
 + 1:n_10_m15= 431.1947m  1:n_10_m19= 431.1947m  1:n_13_m10=   1.8000 
 + 1:n_13_m16=   1.8000   1:n_13_m21=   1.8000   1:n_13_m5_=   1.8000 
 + 1:n_14_m6_=  49.8524n  1:n_14_m7_=  49.4047n  1:n_14_m8_=  49.6153n
 + 1:n_15_m17= 450.2561m  1:n_15_m18= 450.2561m  1:n_15_m19= 450.2561m
 + 1:n_3_m0_s=  73.3428n  1:n_3_m2_d=  73.3428n  1:n_3_m3_s=  73.3428n
 + 1:n_4_m11_=   1.8000   1:n_4_m13_=   1.8000   1:n_4_m14_=   1.8000 
 + 1:n_5_m0_d=  98.4965n  1:n_5_m5_d=  98.7088n  1:n_5_m6_s=  98.2693n
 + 1:n_6_m11_=   1.8000   1:n_6_m16_=   1.8000   1:n_6_m17_=   1.8000 
 + 1:n_7_m12_=   1.8000   1:n_7_m18_=   1.8000   1:n_7_m1_s=   1.8000 
 + 1:n_7_m7_g=   1.8000   1:n_8_m14_=   1.8000   1:n_8_m17_=   1.8000 
 + 1:n_8_m20_=   1.8000   1:n_8_m3_g=   1.8000   1:n_8_m6_g=   1.8000 
 + 1:n_8_m9_s=   1.8000   1:n_9_m3_d=  73.3428n  1:n_9_m4_s=  73.3428n
 + 1:n_9_m8_s=  73.3428n  1:n_a_m12_=   0.       1:n_a_m13_=   0.     
 + 1:n_a_m1_g=   0.       1:n_a_m2_g=   0.       1:n_b_m0_g=   0.     
 + 1:n_b_m11_=   0.       1:n_b_m19_=   0.       1:n_b_m20_=   0.     
 + 1:n_b_m8_g=   0.       1:n_b_m9_g=   0.       1:n_c_m10_=   0.     
 + 1:n_c_m15_=   0.       1:n_c_m21_=   0.       1:n_c_m4_g=   0.     
 + 1:n_gnd_m0= 120.8032p  1:n_gnd_m1=   1.3247n  1:n_gnd_m1= 697.8979p
 + 1:n_gnd_m2= 543.7702p  1:n_gnd_m7= 987.6981p  1:n_gnd_m9=   1.3078n
 + 1:n_s_m15_= 148.9792n  1:n_s_m16_= 148.8730n  1:n_s_m4_d= 147.3363n
 + 1:n_s_m5_s= 147.1257n  1:n_vdd_m1=   1.8000   1:n_vdd_m1=   1.8000 
 + 1:n_vdd_m1=   1.8000   1:n_vdd_m1=   1.8000   1:n_vdd_m2=   1.8000 
 + 1:n_vdd_m2=   1.8000   2:3       =   0.       2:4       =   0.     
 + 2:22      =   0.       2:23      =   0.       2:24      =   0.     
 + 2:25      =   0.       2:27      =   0.       2:28      =   0.     
 + 2:29      =   0.       2:30      =   0.       2:36      =   0.     
 + 3:13      =   0.       3:17      =   0.       3:30      =   0.     
 + 3:31      =   0.       3:32      =   0.       3:33      =   0.     
 + 3:35      =   0.       3:36      =   0.       3:38      =   0.     
 + 3:41      =   0.       3:42      =   0.       3:43      =   0.     
 + 3:44      =   0.       3:50      =   0.       3:53      =   0.     
 + 3:56      =   0.       4:6       =  73.3428n  4:7       =  73.3428n
 + 4:12      =  73.3428n  4:13      =  73.3428n  4:15      =  73.3428n
 + 4:16      =  73.3428n  4:19      =  73.3428n  4:20      =  73.3428n
 + 5:6       =   1.8000   5:7       =   1.8000   5:12      =   1.8000 
 + 5:13      =   1.8000   5:15      =   1.8000   5:16      =   1.8000 
 + 5:19      =   1.8000   5:20      =   1.8000   6:6       =  98.4965n
 + 6:7       =  98.4965n  6:12      =  98.4965n  6:13      =  98.4965n
 + 6:15      =  98.4965n  6:16      =  98.4965n  6:19      =  98.4965n
 + 6:20      =  98.4965n  7:6       =   1.8000   7:7       =   1.8000 
 + 7:12      =   1.8000   7:13      =   1.8000   7:15      =   1.8000 
 + 7:16      =   1.8000   7:19      =   1.8000   7:20      =   1.8000 
 + 8:6       =   1.8000   8:7       =   1.8000   8:11      =   1.8000 
 + 8:12      =   1.8000   8:23      =   1.8000   8:24      =   1.8000 
 + 8:25      =   1.8000   8:26      =   1.8000   8:28      =   1.8000 
 + 8:29      =   1.8000   8:33      =   1.8000   9:7       =   1.8000 
 + 9:8       =   1.8000   9:12      =   1.8000   9:13      =   1.8000 
 + 9:32      =   1.8000   9:33      =   1.8000   9:34      =   1.8000 
 + 9:35      =   1.8000   9:37      =   1.8000   9:38      =   1.8000 
 + 9:39      =   1.8000   9:40      =   1.8000   9:43      =   1.8000 
 + 9:47      =   1.8000   9:49      =   1.8000   9:50      =   1.8000 
 +10:7       =  73.3428n 10:8       =  73.3428n 10:11      =  73.3428n
 +10:12      =  73.3428n 10:15      =  73.3428n 10:16      =  73.3428n
 +10:19      =  73.3428n 10:20      =  73.3428n 11:7       = 431.1947m
 +11:8       = 431.1947m 11:11      = 431.1947m 11:12      = 431.1947m
 +11:15      = 431.1947m 11:16      = 431.1947m 11:19      = 431.1947m
 +11:20      = 431.1947m 12:21      =   0.      12:23      =   0.     
 +12:24      =   0.      12:26      =   0.      12:28      =   0.     
 +12:29      =   0.      12:31      =   0.      12:32      =   0.     
 +12:35      =   0.      12:36      =   0.      13:6       = 148.8202n
 +13:7       = 148.1130n 13:11      = 147.3363n 13:12      = 148.0435n
 +13:14      = 148.0940n 13:15      = 148.0940n 14:6       =   1.8000 
 +14:7       =   1.8000  14:11      =   1.8000  14:12      =   1.8000 
 +14:23      =   1.8000  14:24      =   1.8000  14:25      =   1.8000 
 +14:26      =   1.8000  14:29      =   1.8000  14:32      =   1.8000 
 +14:33      =   1.8000  15:4       =  49.6153n 15:6       =  49.6153n
 +15:7       =  49.6153n 15:11      =  49.6153n 15:12      =  49.6153n
 +15:15      =  49.6153n 15:16      =  49.6153n 15:21      =  49.6153n
 +15:22      =  49.6153n 16:7       = 450.2561m 16:8       = 450.2561m
 +16:11      = 450.2561m 16:12      = 450.2561m 16:15      = 450.2561m
 +16:16      = 450.2561m 16:19      = 450.2561m 16:20      = 450.2561m
 +17:2       =  30.0470p 17:3       =  32.4306p 17:4       =  25.8083p
 +17:5       =  29.8358p 17:6       =  58.8137p 17:7       =  24.5562p
 +17:10      = 115.4974p 17:11      =  63.8248p 17:12      =  25.8904p
 +17:13      =  25.6482p 17:14      =  62.2944p 17:15      =  61.9609p
 +17:16      = 117.9567p 17:20      =  32.5860p 17:27      = 543.7701p
 +17:28      =  30.2539p 17:31      = 775.4528p 17:32      =  68.3033p
 +17:37      =   1.1537n 17:38      = 126.6837p 17:45      =  32.4528p
 +18:2       =   1.8000  18:3       =   1.8000  18:4       =   1.8000 
 +18:5       =   1.8000  18:6       =   1.8000  18:7       =   1.8000 
 +18:10      =   1.8000  18:11      =   1.8000  18:12      =   1.8000 
 +18:13      =   1.8000  18:14      =   1.8000  18:15      =   1.8000 
 +18:16      =   1.8000  18:17      =   1.8000  18:22      =   1.8000 
 +18:23      =   1.8000  18:26      =   1.8000  18:27      =   1.8000 
 +18:32      =   1.8000  18:33      =   1.8000  18:36      =   1.8000 


 **** voltage sources

 subckt                                                  
 element   0:v1        0:v2        0:v3        0:vdd     
  volts       0.          0.          0.          1.8000 
  current     0.          0.          0.       -143.0474p
  power       0.          0.          0.        257.4852p

     total voltage source power dissipation=  257.4852p       watts



 **** resistors

 subckt    xhw2_xor.x  xhw2_xor.x  xhw2_xor.x  xhw2_xor.x  xhw2_xor.x
 element   2:r10       2:r11       2:r12       2:r13       2:r14     
  r value   667.1600m     8.0702      8.0702     13.2552      8.0000 
  v drop      0.          0.          0.          0.          0.     
  current     0.          0.          0.          0.          0.     
  power       0.          0.          0.          0.          0.     

 subckt    xhw2_xor.x  xhw2_xor.x  xhw2_xor.x  xhw2_xor.x  xhw2_xor.x
 element   2:r15       2:r16       2:r17       2:r18       2:r19     
  r value     8.0702      8.0702     13.2552    165.7500     97.7500 
  v drop      0.          0.          0.          0.          0.     
  current     0.          0.          0.          0.          0.     
  power       0.          0.          0.          0.          0.     

 subckt    xhw2_xor.x  xhw2_xor.x  xhw2_xor.x  xhw2_xor.x  xhw2_xor.x
 element   2:r20       2:r21       2:r22       2:r23       2:r24     
  r value   196.7500     66.7500    141.4000m   169.2170m    39.1994m
  v drop      0.          0.          0.          0.          0.     
  current     0.          0.          0.          0.          0.     
  power       0.          0.          0.          0.          0.     

 subckt    xhw2_xor.x  xhw2_xor.x  xhw2_xor.x  xhw2_xor.x  xhw2_xor.x
 element   3:r13       3:r14       3:r15       3:r16       3:r17     
  r value   491.4000m     1.8382    209.5600m     8.0000      8.0702 
  v drop      0.          0.          0.          0.          0.     
  current     0.          0.          0.          0.          0.     
  power       0.          0.          0.          0.          0.     

 subckt    xhw2_xor.x  xhw2_xor.x  xhw2_xor.x  xhw2_xor.x  xhw2_xor.x
 element   3:r18       3:r19       3:r20       3:r21       3:r22     
  r value     8.0702     13.2552      8.0000      5.4383     13.2552 
  v drop      0.          0.          0.          0.          0.     
  current     0.          0.          0.          0.          0.     
  power       0.          0.          0.          0.          0.     

 subckt    xhw2_xor.x  xhw2_xor.x  xhw2_xor.x  xhw2_xor.x  xhw2_xor.x
 element   3:r23       3:r24       3:r25       3:r26       3:r27     
  r value     8.0000      8.0702      8.0702     13.2552     92.7500 
  v drop      0.          0.          0.          0.          0.     
  current     0.          0.          0.          0.          0.     
  power       0.          0.          0.          0.          0.     

 subckt    xhw2_xor.x  xhw2_xor.x  xhw2_xor.x  xhw2_xor.x  xhw2_xor.x
 element   3:r28       3:r29       3:r30       3:r31       3:r32     
  r value   170.7500      4.7330     92.7500      4.7330    170.7500 
  v drop      0.          0.          0.          0.          0.     
  current     0.          0.          0.          0.          0.     
  power       0.          0.          0.          0.          0.     

 subckt    xhw2_xor.x  xhw2_xor.x  xhw2_xor.x  xhw2_xor.x  xhw2_xor.x
 element   3:r33       3:r34       4:r3        4:r4        4:r5      
  r value    92.7500    170.7500      8.0000    754.0000m     8.0000 
  v drop      0.          0.        -33.1623a     3.1256a    33.1623a
  current     0.          0.         -4.1453a     4.1453a     4.1453a
  power       0.          0.          0.          0.          0.     

 subckt    xhw2_xor.x  xhw2_xor.x  xhw2_xor.x  xhw2_xor.x  xhw2_xor.x
 element   4:r6        4:r7        4:r8        4:r9        4:r10     
  r value   148.4000m    16.3327      4.9021      4.8638    148.4000m
  v drop   -6.152e-19   -67.7029a   -60.2100a    39.5779a   6.152e-19
  current    -4.1453a    -4.1452a   -12.2824a     8.1372a     4.1453a
  power       0.          0.          0.          0.          0.     

 subckt    xhw2_xor.x  xhw2_xor.x  xhw2_xor.x  xhw2_xor.x  xhw2_xor.x
 element   4:r11       4:r12       5:r3        5:r4        5:r5      
  r value    16.3327      5.0553      8.0000    754.0000m     8.0000 
  v drop     67.7042a    20.9559a   132.2034p   -12.4600p  -132.2049p
  current     4.1453a     4.1453a    16.5254p   -16.5252p   -16.5256p
  power       0.          0.        2.185e-21   2.059e-22   2.185e-21

 subckt    xhw2_xor.x  xhw2_xor.x  xhw2_xor.x  xhw2_xor.x  xhw2_xor.x
 element   5:r6        5:r7        5:r8        5:r9        5:r10     
  r value   148.4000m    16.3327      4.9021      4.8638    148.4000m
  v drop      2.4527p   269.9327p   117.9774p   -36.6707p    -2.4523p
  current    16.5277p    16.5271p    24.0666p    -7.5395p   -16.5247p
  power     4.054e-23   4.461e-21   2.839e-21   2.765e-22   4.052e-23

 subckt    xhw2_xor.x  xhw2_xor.x  xhw2_xor.x  xhw2_xor.x  xhw2_xor.x
 element   5:r11       5:r12       6:r3        6:r4        6:r5      
  r value    16.3327      5.0553      8.0000      1.1180      8.0000 
  v drop   -269.8974p   -83.5387p    34.5353a    -4.8263a   -34.5353a
  current   -16.5250p   -16.5249p     4.3169a    -4.3169a    -4.3169a
  power     4.460e-21   1.380e-21     0.          0.          0.     

 subckt    xhw2_xor.x  xhw2_xor.x  xhw2_xor.x  xhw2_xor.x  xhw2_xor.x
 element   6:r6        6:r7        6:r8        6:r9        6:r10     
  r value   294.0000m    16.3327      4.9021      5.2468    294.0000m
  v drop      1.2692a    70.5060a   212.2453p  -227.1688p    -1.2692a
  current     4.3169a     4.3169a    43.2966p   -43.2965p    -4.3170a
  power       0.          0.        9.189e-21   9.836e-21     0.     

 subckt    xhw2_xor.x  xhw2_xor.x  xhw2_xor.x  xhw2_xor.x  xhw2_xor.x
 element   6:r11       6:r12       7:r3        7:r4        7:r5      
  r value    16.3327      5.0936      8.0000      1.1180      8.0000 
  v drop    -70.5075a   -21.9889a  -132.2011p    18.4752p   132.2011p
  current    -4.3170a    -4.3169a   -16.5251p    16.5252p    16.5251p
  power       0.          0.        2.185e-21   3.053e-22   2.185e-21

 subckt    xhw2_xor.x  xhw2_xor.x  xhw2_xor.x  xhw2_xor.x  xhw2_xor.x
 element   7:r6        7:r7        7:r8        7:r9        7:r10     
  r value   294.0000m    16.3327      4.9021      5.2468    294.0000m
  v drop     -4.8583p  -269.9099p   -44.3710p   -39.2175p     4.8583p
  current   -16.5250p   -16.5257p    -9.0514p    -7.4745p    16.5250p
  power     8.028e-23   4.460e-21   4.016e-22   2.931e-22   8.028e-23

 subckt    xhw2_xor.x  xhw2_xor.x  xhw2_xor.x  xhw2_xor.x  xhw2_xor.x
 element   7:r11       7:r12       8:r6        8:r7        8:r8      
  r value    16.3327      5.0936      1.2324      8.0000      8.0000 
  v drop    269.8977p    84.1720p     0.        888.1784a  -888.1784a
  current    16.5250p    16.5250p     0.        111.0223a  -111.0223a
  power     4.460e-21   1.391e-21     0.          0.          0.     

 subckt    xhw2_xor.x  xhw2_xor.x  xhw2_xor.x  xhw2_xor.x  xhw2_xor.x
 element   8:r9        8:r10       8:r11       8:r12       8:r13     
  r value     8.0702      8.0702     13.2552    144.7500    118.7500 
  v drop      0.          0.         -1.1102f   222.0446a     0.     
  current     0.          0.        -83.7575a     1.5340a     0.     
  power       0.          0.          0.          0.          0.     

 subckt    xhw2_xor.x  xhw2_xor.x  xhw2_xor.x  xhw2_xor.x  xhw2_xor.x
 element   8:r14       8:r15       8:r16       8:r17       8:r18     
  r value   730.5200m    16.3327      5.2468    876.4000m    16.3327 
  v drop    -24.2837p  -542.9219p  -174.4112p    29.1334p   542.9388p
  current   -33.2416p   -33.2414p   -33.2414p    33.2421p    33.2424p
  power     8.072e-22   1.805e-20   5.798e-21   9.685e-22   1.805e-20

 subckt    xhw2_xor.x  xhw2_xor.x  xhw2_xor.x  xhw2_xor.x  xhw2_xor.x
 element   8:r19       9:r10       9:r11       9:r12       9:r13     
  r value     5.2468      8.0000    865.8000m   546.0000m     8.0000 
  v drop    174.4171p     5.9952f  -888.1784a     0.       -888.1784a
  current    33.2425p   749.4005a    -1.0258f     0.       -111.0223a
  power     5.798e-21     0.          0.          0.          0.     

 subckt    xhw2_xor.x  xhw2_xor.x  xhw2_xor.x  xhw2_xor.x  xhw2_xor.x
 element   9:r14       9:r15       9:r16       9:r17       9:r18     
  r value     8.0702      8.0702     13.2552      8.0000      8.0702 
  v drop      0.          0.         -1.1102f  -444.0892a     0.     
  current     0.          0.        -83.7575a   -55.5112a     0.     
  power       0.          0.          0.          0.          0.     

 subckt    xhw2_xor.x  xhw2_xor.x  xhw2_xor.x  xhw2_xor.x  xhw2_xor.x
 element   9:r19       9:r20       9:r21       9:r22       9:r23     
  r value     8.0702     13.2552    118.7500    144.7500    118.7500 
  v drop      0.       -888.1784a  -222.0446a     0.       -222.0446a
  current     0.        -67.0060a    -1.8698a     0.         -1.8698a
  power       0.          0.          0.          0.          0.     

